"Time / s","Vo:Measured voltage","IL:Measured current","Vin:Measured voltage","open1","open2","open3","open4","short1","short2","short3","short4"
1.2952450770246899,402.44262737315648,-12.597350557509314,-310.24304092971198,0,0,0,0,0,0,0,0
1.2952599999999999,402.57840885889567,-12.872410020768129,-310.08966396779675,0,0,0,0,0,0,0,0
1.29528,402.723493191442,-13.071561030849928,-309.92404519690518,0,0,0,0,0,0,0,0
1.2952999999999999,402.89581309535328,-12.120131661744319,-309.74619115538576,0,0,0,0,0,0,0,0
1.29532,403.00449085272322,-13.441253927375701,-309.55610886460823,0,0,0,0,0,0,0,0
1.2953399999999999,403.1780329255302,-12.53632821605318,-309.35380582869948,0,0,0,0,0,0,0,0
1.2953599999999998,403.30229752006323,-13.165556278531069,-309.13929003423527,0,0,0,0,0,0,0,0
1.29538,403.45794149315446,-12.910368546411311,-308.91256994992972,0,0,0,0,0,0,0,0
1.2953999999999999,403.62568634291381,-11.970966764811378,-308.6736545263077,0,0,0,0,0,0,0,0
1.29542,403.73360426463523,-13.239082802288888,-308.42255319533672,0,0,0,0,0,0,0,0
1.2954399999999999,403.90256336508469,-12.275156495565987,-308.15927587007189,0,0,0,0,0,0,0,0
1.2954599999999998,404.00865835071579,-13.384792927614054,-307.88383294424898,0,0,0,0,0,0,0,0
1.29548,404.17152257757158,-12.731492953755192,-307.59623529188048,0,0,0,0,0,0,0,0
1.2954999999999999,404.32734903751316,-12.064262377673362,-307.29649426683437,0,0,0,0,0,0,0,0
1.29552,404.43910183966562,-13.134999766562492,-306.98462170236775,0,0,0,0,0,0,0,0
1.2955399999999999,404.60492263376705,-12.169965901724403,-306.660629910681,0,0,0,0,0,0,0,0
1.29556,404.70293193033302,-13.482489892382709,-306.32453168240954,0,0,0,0,0,0,0,0
1.29558,404.87018244714693,-12.487609720899625,-305.97634028614192,0,0,0,0,0,0,0,0
1.2955999999999999,405.00893052600838,-12.218996809489818,-305.61606946787532,0,0,0,0,0,0,0,0
1.29562,405.12594903325231,-12.947223969325981,-305.24373345048127,0,0,0,0,0,0,0,0
1.2956399999999999,405.28627377622098,-11.971770222948109,-304.85934693315511,0,0,0,0,0,0,0,0
1.29566,405.37966062279747,-13.343434775542022,-304.46292509081121,0,0,0,0,0,0,0,0
1.2956799999999999,405.54127599852512,-12.401996796747737,-304.05448357351241,0,0,0,0,0,0,0,0
1.2956999999999999,405.66608761836147,-12.524171122188395,-303.63403850582688,0,0,0,0,0,0,0,0
1.29572,405.79228177381123,-12.831850124230737,-303.20160648619805,0,0,0,0,0,0,0,0
1.2957399999999999,405.94919866839831,-11.836700025127421,-302.75720458632139,0,0,0,0,0,0,0,0
1.29576,406.03989101699085,-13.258308225137942,-302.30085035039872,0,0,0,0,0,0,0,0
1.2957799999999999,406.19969504881061,-12.225809850155914,-301.83256179453446,0,0,0,0,0,0,0,0
1.2957999999999998,406.30981063246617,-12.730658753569331,-301.35235740595078,0,0,0,0,0,0,0,0
1.29582,406.44410528311835,-12.539353207359767,-300.86025614229015,0,0,0,0,0,0,0,0
1.2958399999999999,406.59295588618693,-11.515226111444434,-300.35627743087684,0,0,0,0,0,0,0,0
1.29586,406.67696564371545,-12.97772692184048,-299.84044116791824,0,0,0,0,0,0,0,0
1.2958799999999999,406.82780066489977,-11.980519601478855,-299.31276771775606,0,0,0,0,0,0,0,0
1.2959000000000001,406.92010548610472,-12.9281443124113,-298.77327791202521,0,0,0,0,0,0,0,0
1.29592,407.05874977436764,-12.431008656282479,-298.22199304886902,0,0,0,0,0,0,0,0
1.2959399999999999,407.1974761605934,-11.640552014784227,-297.65893489206519,0,0,0,0,0,0,0,0
1.29596,407.28580089083965,-12.863719625011646,-297.08412567018041,0,0,0,0,0,0,0,0
1.2959799999999999,407.43399242535418,-11.757278061297365,-296.49758807570896,0,0,0,0,0,0,0,0
1.296,407.5113833766423,-13.072041682963633,-295.89934526414004,0,0,0,0,0,0,0,0
1.2960199999999999,407.65600158282911,-12.055387241422036,-295.28942085308637,0,0,0,0,0,0,0,0
1.2960399999999999,407.77347878906431,-11.694191978269545,-294.667838921314,0,0,0,0,0,0,0,0
1.29606,407.86510317310103,-12.53256635519708,-294.03462400780751,0,0,0,0,0,0,0,0
1.2960799999999999,408.00332941855692,-11.443980416536824,-293.38980111081889,0,0,0,0,0,0,0,0
1.2961,408.06793587498237,-13.050317962690363,-292.73339568684031,0,0,0,0,0,0,0,0
1.2961199999999999,408.21035059106686,-11.912363139214655,-292.06543364964585,0,0,0,0,0,0,0,0
1.2961399999999998,408.3138089174962,-11.905190469187257,-291.38594136922706,0,0,0,0,0,0,0,0
1.29616,408.41192685683006,-12.281019220419703,-290.69494567076953,0,0,0,0,0,0,0,0
1.2961799999999999,408.54405181855878,-11.065682318808086,-289.99247383361268,0,0,0,0,0,0,0,0
1.2962,408.60007114190932,-12.751400812777621,-289.27855359012909,0,0,0,0,0,0,0,0
1.2962199999999999,408.73432081454649,-11.551386293679462,-288.55321312468044,0,0,0,0,0,0,0,0
1.2962399999999998,408.8172693058807,-12.026919913753037,-287.81648107245996,0,0,0,0,0,0,0,0
1.29626,408.91798483889664,-12.066900954748782,-287.06838651838081,0,0,0,0,0,0,0,0
1.2962799999999999,409.04323634971587,-10.852651915335422,-286.3089589959485,0,0,0,0,0,0,0,0
1.2963,409.09695711398757,-12.473170309145003,-285.53822848604057,0,0,0,0,0,0,0,0
1.2963199999999999,409.22242061605942,-11.270875856144384,-284.75622541581282,0,0,0,0,0,0,0,0
1.29634,409.28813941224229,-12.153697677240434,-283.96298065736499,0,0,0,0,0,0,0,0
1.29636,409.39191743683023,-11.780430569783846,-283.15852552667769,0,0,0,0,0,0,0,0
1.2963799999999999,409.50070294875388,-10.900200505424284,-282.3428917822477,0,0,0,0,0,0,0,0
1.2964,409.5552300955697,-12.310508269056976,-281.51611162389122,0,0,0,0,0,0,0,0
1.2964199999999999,409.67565063460398,-11.029570009635677,-280.6782176914881,0,0,0,0,0,0,0,0
1.29644,409.72673570025773,-12.244009672406076,-279.829243063641,0,0,0,0,0,0,0,0
1.2964599999999999,409.83356370665581,-11.448345104896262,-278.96922125642982,0,0,0,0,0,0,0,0
1.2964799999999999,409.92318726372918,-10.963009485457404,-278.09818622203539,0,0,0,0,0,0,0,0
1.2965,409.98021262474464,-11.949420943297545,-277.21617234742132,0,0,0,0,0,0,0,0
1.2965199999999999,410.09021837817068,-10.650012537609907,-276.32321445300113,0,0,0,0,0,0,0,0
1.29654,410.1226691261665,-12.32533456734776,-275.41934779120731,0,0,0,0,0,0,0,0
1.2965599999999999,410.23077673150925,-11.166934464283337,-274.50460804516433,0,0,0,0,0,0,0,0
1.2965799999999998,410.30215335138865,-11.137836419399179,-273.57903132722305,0,0,0,0,0,0,0,0
1.2966,410.36450151876329,-11.691526190414748,-272.64265417755882,0,0,0,0,0,0,0,0
1.2966199999999999,410.46768456231052,-10.297416376918568,-271.6955135627552,0,0,0,0,0,0,0,0
1.29664,410.48920982546906,-12.152796957425167,-270.73764687428479,0,0,0,0,0,0,0,0
1.2966599999999999,410.5926884876676,-10.75989806811638,-269.7690919271015,0,0,0,0,0,0,0,0
1.2966799999999998,410.64408445733221,-11.179963295336648,-268.78988695808772,0,0,0,0,0,0,0,0
1.2967,410.70750478276165,-11.360712072024885,-267.80007062456991,0,0,0,0,0,0,0,0
1.2967199999999999,410.801345612511,-9.9326000933819518,-266.79968200282002,0,0,0,0,0,0,0,0
1.29674,410.81687450611486,-11.82357996996477,-265.78876058644971,0,0,0,0,0,0,0,0
1.2967599999999999,410.91075603625228,-10.393631523478936,-264.76734628492397,0,0,0,0,0,0,0,0
1.29678,410.94387143479941,-11.25589403914595,-263.73547942191186,0,0,0,0,0,0,0,0
1.2968,411.0088731228231,-11.05544226409471,-262.69320073376906,0,0,0,0,0,0,0,0
1.2968199999999999,411.0839038886607,-10.065275057397146,-261.64055136786413,0,0,0,0,0,0,0,0
1.29684,411.10265364240081,-11.573098553156832,-260.57757288098202,0,0,0,0,0,0,0,0
1.2968599999999999,411.18999273034024,-10.030074305674567,-259.50430723771251,0,0,0,0,0,0,0,0
1.29688,411.20625410866728,-11.258939916031636,-258.4207968087162,0,0,0,0,0,0,0,0
1.2968999999999999,411.27122467451062,-10.669187844997012,-257.32708436917864,0,0,0,0,0,0,0,0
1.2969199999999999,411.32655324198839,-10.110109027322606,-256.22321309695502,0,0,0,0,0,0,0,0
1.29694,411.34699814064669,-11.226647293516177,-255.10922657098251,0,0,0,0,0,0,0,0
1.2969599999999999,411.42470927047509,-9.6317009235680757,-253.98516876958212,0,0,0,0,0,0,0,0
1.29698,411.42474495162651,-11.220128290248915,-252.85108406860078,0,0,0,0,0,0,0,0
1.2969999999999999,411.48862101430399,-10.233346448608831,-251.70701723978107,0,0,0,0,0,0,0,0
1.2970199999999998,411.52426898096252,-10.098612402749078,-250.55301344891228,0,0,0,0,0,0,0,0
1.29704,411.54529477045054,-10.816059559405252,-249.38911825407752,0,0,0,0,0,0,0,0
1.2970599999999999,411.61219536467138,-9.1621115482102322,-248.21537760388716,0,0,0,0,0,0,0,0
1.29708,411.59461533556043,-11.240294011718028,-247.0318378355912,0,0,0,0,0,0,0,0
1.2970999999999999,411.65841871313694,-9.8490786751902473,-245.83854567333447,0,0,0,0,0,0,0,0
1.2971200000000001,411.67636011048938,-10.131949085065708,-244.63554822622672,0,0,0,0,0,0,0,0
1.29714,411.69852209493973,-10.44273652155252,-243.42289298656902,0,0,0,0,0,0,0,0
1.2971599999999999,411.75168750888849,-8.9286235598471375,-242.20062782790311,0,0,0,0,0,0,0,0
1.29718,411.72746224785101,-11.009343763407335,-240.96880100315329,0,0,0,0,0,0,0,0
1.2971999999999999,411.78520188909226,-9.3436249051752949,-239.72746114275574,0,0,0,0,0,0,0,0
1.29722,411.78440690993801,-10.037313820272662,-238.47665725266017,0,0,0,0,0,0,0,0
1.2972399999999999,411.80525769421922,-9.9341592165923664,-237.21643871248503,0,0,0,0,0,0,0,0
1.2972599999999999,411.83699005698088,-8.8963627054390386,-235.94685527348921,0,0,0,0,0,0,0,0
1.29728,411.81161009379366,-10.698023501995875,-234.66795705664137,0,0,0,0,0,0,0,0
1.2972999999999999,411.86102315861149,-8.9569255101960756,-233.37979455067645,0,0,0,0,0,0,0,0
1.29732,411.8444677669093,-10.054713213606153,-232.08241861002119,0,0,0,0,0,0,0,0
1.2973399999999999,411.86574979511636,-9.5306083201522522,-230.77588045287973,0,0,0,0,0,0,0,0
1.2973599999999998,411.87974083203267,-8.893921491339146,-229.46023165912962,0,0,0,0,0,0,0,0
1.29738,411.85582132148846,-10.272118635370909,-228.13552416832053,0,0,0,0,0,0,0,0
1.2973999999999999,411.89471423600327,-8.448946296134574,-226.80181027765988,0,0,0,0,0,0,0,0
1.29742,411.86166293514128,-9.9440370909366518,-225.45914263986427,0,0,0,0,0,0,0,0
1.2974399999999999,411.88003691190005,-9.0608635824521624,-224.10757426117726,0,0,0,0,0,0,0,0
1.2974599999999998,411.87538311255702,-8.8873923264141279,-222.74715849919218,0,0,0,0,0,0,0,0
1.29748,411.8526361196819,-9.8352938622464894,-221.37794906076897,0,0,0,0,0,0,0,0
1.2974999999999999,411.88103035354499,-7.9236592332954858,-220.00000000001387,0,0,0,0,0,0,0,0
1.29752,411.83128685641145,-9.8779519990724012,-218.61336571592159,0,0,0,0,0,0,0,0
1.2975399999999999,411.84711342548832,-8.6292708650201515,-217.21810095050193,0,0,0,0,0,0,0,0
1.29756,411.82634429221855,-8.843839874734778,-215.81426078638106,0,0,0,0,0,0,0,0
1.29758,411.8039893039163,-9.3548763990919745,-214.40190064479029,0,0,0,0,0,0,0,0
1.2975999999999999,411.81447196301275,-7.7602789299701218,-212.98107628327696,0,0,0,0,0,0,0,0
1.29762,411.75635302017503,-9.7552904884792753,-211.55184379354111,0,0,0,0,0,0,0,0
1.2976399999999999,411.76921683034016,-8.1349092334510171,-210.11425959926001,0,0,0,0,0,0,0,0
1.29766,411.73246628059218,-8.7309921808512279,-208.66838045377011,0,0,0,0,0,0,0,0
1.2976799999999999,411.70834942479451,-8.8675109353103654,-207.21426343793053,0,0,0,0,0,0,0,0
1.2976999999999999,411.70045816737377,-7.7209169138357598,-205.75196595777811,0,0,0,0,0,0,0,0
1.29772,411.63652529186004,-9.6128961500824417,-204.28154574230024,0,0,0,0,0,0,0,0
1.2977399999999999,411.64598076403774,-7.5462942580431713,-202.80306084119579,0,0,0,0,0,0,0,0
1.29776,411.59214855439586,-8.5859999751658993,-201.31656962249036,0,0,0,0,0,0,0,0
1.2977799999999999,411.56527354598632,-8.3420107350718755,-199.82213077033893,0,0,0,0,0,0,0,0
1.2977999999999998,411.5392801169084,-7.6371367309205276,-198.319803282615,0,0,0,0,0,0,0,0
1.29782,411.47568219952609,-9.1455810258343817,-196.80964646862176,0,0,0,0,0,0,0,0
1.2978399999999999,411.47436486397152,-7.0386210454005287,-195.29171994679169,0,0,0,0,0,0,0,0
1.29786,411.40654465452599,-8.5154417024451892,-193.76608364223736,0,0,0,0,0,0,0,0
1.2978799999999999,411.37860479408238,-7.8851995530435754,-192.23279778449535,0,0,0,0,0,0,0,0
1.2978999999999998,411.33755139334551,-7.5471302140739587,-190.69192290505211,0,0,0,0,0,0,0,0
1.29792,411.27370546810226,-8.6661594905350992,-189.14351983499549,0,0,0,0,0,0,0,0
1.2979399999999999,411.2601346863986,-6.5816006185677809,-187.58764970265537,0,0,0,0,0,0,0,0
1.29796,411.18026697598481,-8.3519331454282533,-186.02437393109238,0,0,0,0,0,0,0,0
1.2979799999999999,411.14985399429355,-7.2614330419193731,-184.45375423578554,0,0,0,0,0,0,0,0
1.298,411.09131058012633,-7.4209784657174662,-182.87585262208262,0,0,0,0,0,0,0,0
1.29802,411.02627655790775,-8.1450631011700168,-181.29073138286611,0,0,0,0,0,0,0,0
1.2980399999999999,410.99503313892995,-6.4882787786346938,-179.6984530959941,0,0,0,0,0,0,0,0
1.29806,410.90965001765642,-8.1349065868626518,-178.09908062185792,0,0,0,0,0,0,0,0
1.2980799999999999,410.87504937787855,-6.6475745988370818,-176.4926771010168,0,0,0,0,0,0,0,0
1.2981,410.8013502630759,-7.2299515857639847,-174.87930595144391,0,0,0,0,0,0,0,0
1.2981199999999999,410.73479280656159,-7.5538722670381055,-173.25903086634253,0,0,0,0,0,0,0,0
1.2981399999999998,410.68587445589588,-6.3188408518746293,-171.63191581136959,0,0,0,0,0,0,0,0
1.29816,410.59312290155464,-7.9730227232510389,-169.99802502222661,0,0,0,0,0,0,0,0
1.2981799999999999,410.55456683380783,-6.1524499054419417,-168.35742300215378,0,0,0,0,0,0,0,0
1.2982,410.46904021147969,-7.0830185243439807,-166.71017451928,0,0,0,0,0,0,0,0
1.2982199999999999,410.40098178369129,-7.001805695346758,-165.05634460418472,0,0,0,0,0,0,0,0
1.2982399999999998,410.33648153652314,-6.2508839051722873,-163.39599854722618,0,0,0,0,0,0,0,0
1.29826,410.23921539796214,-7.7701963695843146,-161.72920189600876,0,0,0,0,0,0,0,0
1.2982799999999999,410.19660373752066,-5.4749002114851288,-160.0560204528403,0,0,0,0,0,0,0,0
1.2983,410.09764783677895,-6.8842848447232727,-158.37652027202901,0,0,0,0,0,0,0,0
1.2983199999999999,410.02657194106484,-6.4615934693260142,-156.69076765739663,0,0,0,0,0,0,0,0
1.29834,409.94885423210246,-6.0520304842868748,-154.99882915953944,0,0,0,0,0,0,0,0
1.29836,409.84663861186795,-7.4312867651859138,-153.30077157332283,0,0,0,0,0,0,0,0
1.2983799999999999,409.79200410115357,-5.3400357932966251,-151.59666193513755,0,0,0,0,0,0,0,0
1.2984,409.68729049157241,-6.7439400657768367,-149.88656752029866,0,0,0,0,0,0,0,0
1.2984199999999999,409.61484539550054,-5.8387146510396208,-148.17055584043649,0,0,0,0,0,0,0,0
1.29844,409.52294183471076,-5.9012195502574389,-146.44869464072281,0,0,0,0,0,0,0,0
1.2984599999999999,409.4209274396664,-6.8625189734800234,-144.72105189732065,0,0,0,0,0,0,0,0
1.2984799999999999,409.35167875228893,-5.1064227959890642,-142.98769581459172,0,0,0,0,0,0,0,0
1.2985,409.2416518327334,-6.3632621547322081,-141.24869482245052,0,0,0,0,0,0,0,0
1.2985199999999999,409.16310351677328,-5.176168326935108,-139.50411757370995,0,0,0,0,0,0,0,0
1.29854,409.05926616172081,-5.6366137447404512,-137.75403294126107,0,0,0,0,0,0,0,0
1.2985599999999999,408.95564312451455,-6.1758452424667301,-135.99851001548021,0,0,0,0,0,0,0,0
1.2985799999999998,408.87023559390292,-4.9539059814290018,-134.23761810139075,0,0,0,0,0,0,0,0
1.2986,408.75473558877763,-6.1952681210748484,-132.47142671597427,0,0,0,0,0,0,0,0
1.2986199999999999,408.67377629008638,-4.5178943282658475,-130.70000558547449,0,0,0,0,0,0,0,0
1.29864,408.5592712179606,-5.3705212350543752,-128.92342464251627,0,0,0,0,0,0,0,0
1.2986599999999999,408.45369340983444,-5.5519359795745507,-127.1417540235376,0,0,0,0,0,0,0,0
1.2986799999999998,408.35552009255895,-4.7221367256293609,-125.35506406582783,0,0,0,0,0,0,0,0
1.2987,408.23512928576793,-5.8752213092193184,-123.56342530478243,0,0,0,0,0,0,0,0
1.2987199999999999,408.14699690319628,-4.0443669213401003,-121.76690847131289,0,0,0,0,0,0,0,0
1.29874,408.02470530641085,-5.1474649549751135,-119.96558448877897,0,0,0,0,0,0,0,0
1.2987599999999999,407.917074909522,-4.967351868083326,-118.15952447039972,0,0,0,0,0,0,0,0
1.29878,407.808472867116,-4.4562489999429014,-116.34879971629952,0,0,0,0,0,0,0,0
1.2988,407.68331208426673,-5.5166782135988672,-114.53348171082399,0,0,0,0,0,0,0,0
1.2988199999999999,407.58559508427788,-3.8680595475985187,-112.71364211960328,0,0,0,0,0,0,0,0
1.29884,407.45912996917008,-4.8768211676809106,-110.88935278677187,0,0,0,0,0,0,0,0
1.2988599999999999,407.34871871036,-4.3317733601835906,-109.06068573218194,0,0,0,0,0,0,0,0
1.29888,407.22944549163441,-4.3378088771905867,-107.22771314844454,0,0,0,0,0,0,0,0
1.2988999999999999,407.10096664487173,-5.3014021186769051,-105.39050739821189,0,0,0,0,0,0,0,0
1.2989199999999999,406.99682321776464,-3.6268274364751543,-103.54914101120463,0,0,0,0,0,0,0,0
1.29894,406.86573397666592,-4.6050097467044298,-101.70368668139811,0,0,0,0,0,0,0,0
1.2989599999999999,406.75293967326508,-3.6241034856160472,-99.854217264202731,0,0,0,0,0,0,0,0
1.29898,406.6250959892721,-3.9383411952275464,-98.000805773470788,0,0,0,0,0,0,0,0
1.2989999999999999,406.49238308877938,-4.8012579296048203,-96.143525378747967,0,0,0,0,0,0,0,0
1.2990199999999998,406.37839037193135,-3.4355506781034699,-94.282449402267318,0,0,0,0,0,0,0,0
1.29904,406.2443039318095,-4.2437304195858614,-92.417651316104809,0,0,0,0,0,0,0,0
1.2990599999999999,406.12744532017359,-2.8920610942544127,-90.549204739329582,0,0,0,0,0,0,0,0
1.29908,405.99156395149481,-3.7126305927168612,-88.677183434979398,0,0,0,0,0,0,0,0
1.2990999999999999,405.85864089698384,-4.1329920985772741,-86.801661307283808,0,0,0,0,0,0,0,0
1.2991199999999998,405.73498895740107,-3.1391073032645553,-84.922712398628079,0,0,0,0,0,0,0,0
1.29914,405.59699970625684,-3.9091620881346567,-83.040410886680831,0,0,0,0,0,0,0,0
1.2991599999999999,405.47350929529495,-2.6572295346349093,-81.154831081516761,0,0,0,0,0,0,0,0
1.29918,405.33442717237017,-3.3706263906575327,-79.26604742256383,0,0,0,0,0,0,0,0
1.2991999999999999,405.20002658672149,-3.4136851195048652,-77.374134475800986,0,0,0,0,0,0,0,0
1.29922,405.06745533658761,-2.9219102547873814,-75.479166930660483,0,0,0,0,0,0,0,0
1.29924,404.92679961440939,-3.582818512143322,-73.581219597284885,0,0,0,0,0,0,0,0
1.2992599999999999,404.79764163454121,-2.4268282976705429,-71.680367403368038,0,0,0,0,0,0,0,0
1.29928,404.65581090631173,-3.0298567478970333,-69.776685391230913,0,0,0,0,0,0,0,0
1.2992999999999999,404.51986637857874,-2.6933959277978108,-67.870248715065827,0,0,0,0,0,0,0,0
1.29932,404.38053656328606,-2.5639065684679512,-65.96113263767667,0,0,0,0,0,0,0,0
1.2993399999999999,404.23706841244177,-3.1126716458518038,-64.049412527731818,0,0,0,0,0,0,0,0
1.2993599999999998,404.10189310086372,-2.1164395920879406,-62.135163856650543,0,0,0,0,0,0,0,0
1.29938,403.95716698108703,-2.6735249331772013,-60.218462195675322,0,0,0,0,0,0,0,0
1.2993999999999999,403.81906810830981,-1.9556386727692026,-58.299383212940491,0,0,0,0,0,0,0,0
1.29942,403.6741883001979,-2.3186193851632226,-56.378002670363578,0,0,0,0,0,0,0,0
1.2994399999999999,403.52847343048694,-2.8197069990053865,-54.454396420793223,0,0,0,0,0,0,0,0
1.2994599999999998,403.38947018888007,-1.9123901755737152,-52.528640404893054,0,0,0,0,0,0,0,0
1.29948,403.24316262383525,-2.2862017985483076,-50.600810648195697,0,0,0,0,0,0,0,0
1.2994999999999999,403.1015716228091,-1.5211962158668082,-48.670983258153882,0,0,0,0,0,0,0,0
1.29952,402.954226093214,-1.9017815059069261,-46.73923442101362,0,0,0,0,0,0,0,0
1.2995399999999999,402.80647136946868,-2.2853858447464082,-44.805640398946295,0,0,0,0,0,0,0,0
1.29956,402.66282606469821,-1.5310651491735716,-42.870277526898057,0,0,0,0,0,0,0,0
1.29958,402.51423153448161,-1.9207882470651645,-40.933222209716256,0,0,0,0,0,0,0,0
1.2995999999999999,402.369310947825,-1.2402712149799009,-38.994550919010521,0,0,0,0,0,0,0,0
1.29962,402.2202310916058,-1.5686400788023225,-37.054340190186323,0,0,0,0,0,0,0,0
1.2996399999999999,402.07092416141558,-1.8995583662641373,-35.112666619476165,0,0,0,0,0,0,0,0
1.29966,401.92447690473273,-1.2951306295521949,-33.169606860792818,0,0,0,0,0,0,0,0
1.2996799999999999,401.77493711673213,-1.4972674897928164,-31.225237622843654,0,0,0,0,0,0,0,0
1.2996999999999999,401.62711203636229,-0.96546698518803054,-29.279635665979317,0,0,0,0,0,0,0,0
